
T794C 000:466 SEGGER J-Link V5.12e Log File (0001ms, 0288ms total)
T794C 000:466 DLL Compiled: Apr 29 2016 15:03:58 (0001ms, 0288ms total)
T794C 000:466 Logging started @ 2025-05-15 14:23 (0001ms, 0288ms total)
T794C 000:467 JLINK_SetWarnOutHandler(...) (0000ms, 0288ms total)
T794C 000:467 JLINK_OpenEx(...)
Firmware: J-Link V9 compiled May  7 2021 16:26:12
Hardware: V9.70
S/N: 150710353
Feature(s): GDB, RDI, FlashBP, FlashDL, JFlash  returns O.K. (0281ms, 0569ms total)
T794C 000:748 JLINK_SetErrorOutHandler(...) (0000ms, 0569ms total)
T794C 000:748 JLINK_ExecCommand("ProjectFile = "E:\working\Pulse\Firmware\efence-firmware-hk-ip20250429\MDK-ARM\JLinkSettings.ini"", ...)Device "ARM9" selected.  returns 0x00 (0038ms, 0607ms total)
T794C 000:788 JLINK_ExecCommand("Device = STM32F407VETx", ...)Device "STM32F407VE" selected.  returns 0x00 (0005ms, 0612ms total)
T794C 000:793 JLINK_ExecCommand("DisableConnectionTimeout", ...)  returns 0x01 (0000ms, 0612ms total)
T794C 000:793 JLINK_GetHardwareVersion()  returns 0x17AE8 (0000ms, 0612ms total)
T794C 000:793 JLINK_GetDLLVersion()  returns 51205 (0000ms, 0612ms total)
T794C 000:793 JLINK_GetFirmwareString(...) (0000ms, 0612ms total)
T794C 000:800 JLINK_GetDLLVersion()  returns 51205 (0000ms, 0612ms total)
T794C 000:800 JLINK_GetCompileDateTime() (0000ms, 0612ms total)
T794C 000:820 JLINK_GetFirmwareString(...) (0000ms, 0612ms total)
T794C 000:826 JLINK_GetHardwareVersion()  returns 0x17AE8 (0000ms, 0612ms total)
T794C 000:868 JLINK_TIF_Select(JLINKARM_TIF_SWD)  returns 0x00 (0001ms, 0613ms total)
T794C 000:869 JLINK_SetSpeed(500) (0000ms, 0613ms total)
T794C 000:869 JLINK_GetId() >0x108 TIF>Found SWD-DP with ID 0x2BA01477 >0x0D TIF> >0x28 TIF> >0x0D TIF> >0x28 TIF> >0x0D TIF> >0x28 TIF> >0x0D TIF> >0x28 TIF> >0x0D TIF> >0x21 TIF> >0x0D TIF> >0x28 TIF> >0x0D TIF> >0x28 TIF> >0x0D TIF> >0x28 TIF> >0x0D TIF> >0x21 TIF> >0x0D TIF> >0x21 TIF> >0x0D TIF> >0x28 TIF> >0x0D TIF> >0x21 TIF> >0x0D TIF> >0x21 TIF> >0x0D TIF> >0x28 TIF> >0x0D TIF> >0x21 TIF> >0x0D TIF> >0x21 TIF> >0x0D TIF> >0x28 TIF> >0x0D TIF> >0x21 TIF> >0x0D TIF> >0x21 TIF> >0x0D TIF>
 >0x28 TIF> >0x0D TIF> >0x21 TIF> >0x0D TIF> >0x21 TIF> >0x0D TIF> >0x28 TIF> >0x0D TIF> >0x21 TIF> >0x0D TIF> >0x21 TIF> >0x108 TIF>Found SWD-DP with ID 0x2BA01477 >0x0D TIF> >0x28 TIF> >0x0D TIF> >0x28 TIF> >0x0D TIF> >0x28 TIF> >0x0D TIF> >0x28 TIF> >0x0D TIF> >0x21 TIF> >0x0D TIF> >0x28 TIF> >0x0D TIF> >0x28 TIF> >0x0D TIF> >0x21 TIF> >0x0D TIF> >0x21 TIF> >0x0D TIF> >0x21 TIF> >0x0D TIF> >0x28 TIF> >0x0D TIF> >0x28 TIF> >0x0D TIF> >0x28 TIF> >0x0D TIF> >0x21 TIF> >0x0D TIF> >0x21 TIF> >0x0D TIF>
 >0x28 TIF> >0x0D TIF> >0x21 TIF> >0x0D TIF> >0x21 TIF>Found Cortex-M4 r0p1, Little endian. -- CPU_ReadMem(4 bytes @ 0xE000EDF0) -- CPU_ReadMem(4 bytes @ 0xE0002000)FPUnit: 6 code (BP) slots and 2 literal slots -- CPU_ReadMem(4 bytes @ 0xE000EDFC) -- CPU_ReadMem(4 bytes @ 0xE0001000) -- CPU_WriteMem(4 bytes @ 0xE0001000) -- CPU_ReadMem(4 bytes @ 0xE000ED88) -- CPU_WriteMem(4 bytes @ 0xE000ED88) -- CPU_ReadMem(4 bytes @ 0xE000ED88) -- CPU_WriteMem(4 bytes @ 0xE000ED88)CoreSight components:
ROMTbl 0 @ E00FF000 -- CPU_ReadMem(16 bytes @ 0xE00FF000) -- CPU_ReadMem(16 bytes @ 0xE000EFF0) -- CPU_ReadMem(16 bytes @ 0xE000EFE0)ROMTbl 0 [0]: FFF0F000, CID: B105E00D, PID: 000BB00C SCS -- CPU_ReadMem(16 bytes @ 0xE0001FF0) -- CPU_ReadMem(16 bytes @ 0xE0001FE0)ROMTbl 0 [1]: FFF02000, CID: B105E00D, PID: 003BB002 DWT -- CPU_ReadMem(16 bytes @ 0xE0002FF0) -- CPU_ReadMem(16 bytes @ 0xE0002FE0)ROMTbl 0 [2]: FFF03000, CID: B105E00D, PID: 002BB003 FPB -- CPU_ReadMem(16 bytes @ 0xE0000FF0)
 -- CPU_ReadMem(16 bytes @ 0xE0000FE0)ROMTbl 0 [3]: FFF01000, CID: B105E00D, PID: 003BB001 ITM -- CPU_ReadMem(16 bytes @ 0xE00FF010) -- CPU_ReadMem(16 bytes @ 0xE0040FF0) -- CPU_ReadMem(16 bytes @ 0xE0040FE0)ROMTbl 0 [4]: FFF41000, CID: B105900D, PID: 000BB9A1 TPIU -- CPU_ReadMem(16 bytes @ 0xE0041FF0) -- CPU_ReadMem(16 bytes @ 0xE0041FE0)ROMTbl 0 [5]: FFF42000, CID: 00000000, PID: 00000000 ??? >0x0D TIF> >0x21 TIF>  returns 0x2BA01477 (0109ms, 0722ms total)
T794C 000:979 JLINK_GetDLLVersion()  returns 51205 (0000ms, 0722ms total)
T794C 000:979 JLINK_CORE_GetFound()  returns 0xE0000FF (0000ms, 0722ms total)
T794C 000:979 JLINK_GetDebugInfo(0x100) -- Value=0xE00FF000  returns 0x00 (0000ms, 0722ms total)
T794C 000:986 JLINK_GetDebugInfo(0x100) -- Value=0xE00FF000  returns 0x00 (0000ms, 0722ms total)
T794C 000:986 JLINK_GetDebugInfo(0x101) -- Value=0x00000000  returns 0x00 (0000ms, 0722ms total)
T794C 000:986 JLINK_ReadMem (0xE0041FF0, 0x0010 Bytes, ...) -- CPU is running -- CPU_ReadMem(16 bytes @ 0xE0041FF0) - Data: 00 00 00 00 00 00 00 00 00 00 00 00 00 00 00 00  returns 0x00 (0002ms, 0724ms total)
T794C 000:988 JLINK_GetDebugInfo(0x102) -- Value=0x00000000  returns 0x00 (0000ms, 0724ms total)
T794C 000:988 JLINK_GetDebugInfo(0x103) -- Value=0xE0040000  returns 0x00 (0000ms, 0724ms total)
T794C 000:988 JLINK_GetDebugInfo(0x104) -- Value=0xE0000000  returns 0x00 (0000ms, 0724ms total)
T794C 000:988 JLINK_GetDebugInfo(0x105) -- Value=0xE0001000  returns 0x00 (0000ms, 0724ms total)
T794C 000:988 JLINK_GetDebugInfo(0x106) -- Value=0xE0002000  returns 0x00 (0000ms, 0724ms total)
T794C 000:988 JLINK_GetDebugInfo(0x107) -- Value=0xE000E000  returns 0x00 (0000ms, 0724ms total)
T794C 000:988 JLINK_GetDebugInfo(0x10C) -- Value=0xE000EDF0  returns 0x00 (0000ms, 0724ms total)
T794C 000:988 JLINK_ReadMemU32(0xE000EF40, 0x0001 Items, ...) -- CPU is running -- CPU_ReadMem(4 bytes @ 0xE000EF40) - Data: 21 00 11 10  returns 0x01 (0001ms, 0725ms total)
T794C 000:989 JLINK_ReadMemU32(0xE000EF44, 0x0001 Items, ...) -- CPU is running -- CPU_ReadMem(4 bytes @ 0xE000EF44) - Data: 11 00 00 11  returns 0x01 (0001ms, 0726ms total)
T794C 000:990 JLINK_ReadMemU32(0xE000ED00, 0x0001 Items, ...) -- CPU is running -- CPU_ReadMem(4 bytes @ 0xE000ED00) - Data: 41 C2 0F 41  returns 0x01 (0000ms, 0726ms total)
T794C 000:990 JLINK_SetResetType(JLINKARM_RESET_TYPE_NORMAL)  returns JLINKARM_RESET_TYPE_NORMAL (0000ms, 0726ms total)
T794C 000:990 JLINK_Reset() -- CPU is running -- CPU_WriteMem(4 bytes @ 0xE000EDF0) -- CPU is running -- CPU_WriteMem(4 bytes @ 0xE000EDFC) >0x35 TIF> -- CPU is running -- CPU_WriteMem(4 bytes @ 0xE000ED0C) -- CPU is running -- CPU_ReadMem(4 bytes @ 0xE000EDF0) -- CPU is running -- CPU_ReadMem(4 bytes @ 0xE000EDF0) -- CPU is running -- CPU_WriteMem(4 bytes @ 0xE000EDF0) -- CPU is running -- CPU_WriteMem(4 bytes @ 0xE000EDFC) -- CPU is running -- CPU_ReadMem(4 bytes @ 0xE000EDF0)
 -- CPU_WriteMem(4 bytes @ 0xE0002000) -- CPU_ReadMem(4 bytes @ 0xE000EDFC) -- CPU_ReadMem(4 bytes @ 0xE0001000) (0030ms, 0756ms total)
T794C 001:020 JLINK_Halt()  returns 0x00 (0000ms, 0756ms total)
T794C 001:020 JLINK_IsHalted()  returns TRUE (0000ms, 0756ms total)
T794C 001:020 JLINK_ReadMemU32(0xE000EDF0, 0x0001 Items, ...) -- CPU_ReadMem(4 bytes @ 0xE000EDF0) - Data: 03 00 03 00  returns 0x01 (0001ms, 0757ms total)
T794C 001:021 JLINK_WriteU32(0xE000EDF0, 0xA05F0003) -- CPU_WriteMem(4 bytes @ 0xE000EDF0)  returns 0x00 (0001ms, 0758ms total)
T794C 001:022 JLINK_WriteU32(0xE000EDFC, 0x01000000) -- CPU_WriteMem(4 bytes @ 0xE000EDFC)  returns 0x00 (0000ms, 0758ms total)
T794C 001:043 JLINK_GetHWStatus(...)  returns 0x00 (0000ms, 0758ms total)
T794C 001:056 JLINK_GetNumBPUnits(Type = 0xFFFFFF00)  returns 0x06 (0000ms, 0758ms total)
T794C 001:057 JLINK_GetNumBPUnits(Type = 0xF0)  returns 0x2000 (0000ms, 0759ms total)
T794C 001:057 JLINK_GetNumWPUnits()  returns 0x04 (0000ms, 0759ms total)
T794C 001:068 JLINK_GetSpeed()  returns 0x1F4 (0000ms, 0759ms total)
T794C 001:077 JLINK_ReadMemU32(0xE000E004, 0x0001 Items, ...) -- CPU_ReadMem(4 bytes @ 0xE000E004) - Data: 02 00 00 00  returns 0x01 (0001ms, 0760ms total)
T794C 001:078 JLINK_ReadMemU32(0xE000E004, 0x0001 Items, ...) -- CPU_ReadMem(4 bytes @ 0xE000E004) - Data: 02 00 00 00  returns 0x01 (0001ms, 0761ms total)
T794C 001:079 JLINK_WriteMem(0xE0001000, 0x001C Bytes, ...) - Data: 01 00 00 00 00 00 00 00 00 00 00 00 00 00 00 00 ... -- CPU_WriteMem(28 bytes @ 0xE0001000)  returns 0x1C (0001ms, 0762ms total)
T794C 001:080 JLINK_ReadMem (0xE0001000, 0x001C Bytes, ...) -- CPU_ReadMem(28 bytes @ 0xE0001000) - Data: 01 00 00 40 00 00 00 00 00 00 00 00 00 00 00 00 ...  returns 0x00 (0002ms, 0764ms total)
T794C 001:082 JLINK_Halt()  returns 0x00 (0000ms, 0764ms total)
T794C 001:082 JLINK_IsHalted()  returns TRUE (0000ms, 0764ms total)
T794C 001:087 JLINK_WriteMem(0x20000000, 0x0188 Bytes, ...) - Data: 00 BE 0A E0 0D 78 2D 06 68 40 08 24 40 00 00 D3 ... -- CPU_WriteMem(392 bytes @ 0x20000000)  returns 0x188 (0010ms, 0774ms total)
T794C 001:097 JLINK_WriteReg(R0, 0x08000000)  returns 0x00 (0000ms, 0774ms total)
T794C 001:097 JLINK_WriteReg(R1, 0x00B71B00)  returns 0x00 (0000ms, 0774ms total)
T794C 001:097 JLINK_WriteReg(R2, 0x00000001)  returns 0x00 (0000ms, 0774ms total)
T794C 001:097 JLINK_WriteReg(R3, 0x00000000)  returns 0x00 (0000ms, 0774ms total)
T794C 001:097 JLINK_WriteReg(R4, 0x00000000)  returns 0x00 (0000ms, 0774ms total)
T794C 001:097 JLINK_WriteReg(R5, 0x00000000)  returns 0x00 (0000ms, 0774ms total)
T794C 001:097 JLINK_WriteReg(R6, 0x00000000)  returns 0x00 (0000ms, 0774ms total)
T794C 001:097 JLINK_WriteReg(R7, 0x00000000)  returns 0x00 (0000ms, 0774ms total)
T794C 001:097 JLINK_WriteReg(R8, 0x00000000)  returns 0x00 (0000ms, 0774ms total)
T794C 001:097 JLINK_WriteReg(R9, 0x20000184)  returns 0x00 (0000ms, 0774ms total)
T794C 001:097 JLINK_WriteReg(R10, 0x00000000)  returns 0x00 (0000ms, 0774ms total)
T794C 001:097 JLINK_WriteReg(R11, 0x00000000)  returns 0x00 (0000ms, 0774ms total)
T794C 001:097 JLINK_WriteReg(R12, 0x00000000)  returns 0x00 (0000ms, 0774ms total)
T794C 001:097 JLINK_WriteReg(R13 (SP), 0x20001000)  returns 0x00 (0000ms, 0774ms total)
T794C 001:097 JLINK_WriteReg(R14, 0x20000001)  returns 0x00 (0000ms, 0774ms total)
T794C 001:097 JLINK_WriteReg(R15 (PC), 0x2000005E)  returns 0x00 (0000ms, 0774ms total)
T794C 001:097 JLINK_WriteReg(XPSR, 0x01000000)  returns 0x00 (0000ms, 0774ms total)
T794C 001:097 JLINK_WriteReg(MSP, 0x20001000)  returns 0x00 (0000ms, 0774ms total)
T794C 001:097 JLINK_WriteReg(PSP, 0x20001000)  returns 0x00 (0000ms, 0774ms total)
T794C 001:098 JLINK_WriteReg(CFBP, 0x00000000)  returns 0x00 (0000ms, 0775ms total)
T794C 001:098 JLINK_SetBPEx(Addr = 0x20000000, Type = 0xFFFFFFF2) -- CPU_ReadMem(2 bytes @ 0x20000000)  returns 0x00000001 (0001ms, 0776ms total)
T794C 001:099 JLINK_Go() -- CPU_WriteMem(2 bytes @ 0x20000000) -- CPU_ReadMem(4 bytes @ 0xE0001000) -- CPU_WriteMem(4 bytes @ 0xE0002008) -- CPU_WriteMem(4 bytes @ 0xE000200C) -- CPU_WriteMem(4 bytes @ 0xE0002010) -- CPU_WriteMem(4 bytes @ 0xE0002014) -- CPU_WriteMem(4 bytes @ 0xE0002018) -- CPU_WriteMem(4 bytes @ 0xE000201C) -- CPU_WriteMem(4 bytes @ 0xE0001004) (0015ms, 0791ms total)
T794C 001:114 JLINK_IsHalted() -- CPU_ReadMem(2 bytes @ 0x20000000)  returns TRUE (0013ms, 0804ms total)
T794C 001:127 JLINK_ReadReg(R15 (PC))  returns 0x20000000 (0000ms, 0791ms total)
T794C 001:127 JLINK_ClrBPEx(BPHandle = 0x00000001)  returns 0x00 (0000ms, 0791ms total)
T794C 001:127 JLINK_ReadReg(R0)  returns 0x00000000 (0000ms, 0791ms total)
T794C 001:127 JLINK_WriteReg(R0, 0x08010000)  returns 0x00 (0000ms, 0791ms total)
T794C 001:127 JLINK_WriteReg(R1, 0x00010000)  returns 0x00 (0000ms, 0791ms total)
T794C 001:127 JLINK_WriteReg(R2, 0x000000FF)  returns 0x00 (0000ms, 0791ms total)
T794C 001:127 JLINK_WriteReg(R3, 0x00000000)  returns 0x00 (0000ms, 0791ms total)
T794C 001:128 JLINK_WriteReg(R4, 0x00000000)  returns 0x00 (0000ms, 0792ms total)
T794C 001:128 JLINK_WriteReg(R5, 0x00000000)  returns 0x00 (0000ms, 0792ms total)
T794C 001:128 JLINK_WriteReg(R6, 0x00000000)  returns 0x00 (0000ms, 0792ms total)
T794C 001:128 JLINK_WriteReg(R7, 0x00000000)  returns 0x00 (0000ms, 0792ms total)
T794C 001:128 JLINK_WriteReg(R8, 0x00000000)  returns 0x00 (0000ms, 0792ms total)
T794C 001:128 JLINK_WriteReg(R9, 0x20000184)  returns 0x00 (0000ms, 0792ms total)
T794C 001:128 JLINK_WriteReg(R10, 0x00000000)  returns 0x00 (0000ms, 0792ms total)
T794C 001:128 JLINK_WriteReg(R11, 0x00000000)  returns 0x00 (0000ms, 0792ms total)
T794C 001:128 JLINK_WriteReg(R12, 0x00000000)  returns 0x00 (0000ms, 0792ms total)
T794C 001:128 JLINK_WriteReg(R13 (SP), 0x20001000)  returns 0x00 (0000ms, 0792ms total)
T794C 001:128 JLINK_WriteReg(R14, 0x20000001)  returns 0x00 (0000ms, 0792ms total)
T794C 001:128 JLINK_WriteReg(R15 (PC), 0x20000020)  returns 0x00 (0000ms, 0792ms total)
T794C 001:128 JLINK_WriteReg(XPSR, 0x01000000)  returns 0x00 (0000ms, 0792ms total)
T794C 001:128 JLINK_WriteReg(MSP, 0x20001000)  returns 0x00 (0000ms, 0792ms total)
T794C 001:128 JLINK_WriteReg(PSP, 0x20001000)  returns 0x00 (0000ms, 0792ms total)
T794C 001:128 JLINK_WriteReg(CFBP, 0x00000000)  returns 0x00 (0000ms, 0792ms total)
T794C 001:128 JLINK_SetBPEx(Addr = 0x20000000, Type = 0xFFFFFFF2)  returns 0x00000002 (0000ms, 0792ms total)
T794C 001:128 JLINK_Go() -- CPU_ReadMem(4 bytes @ 0xE0001000) (0005ms, 0797ms total)
T794C 001:133 JLINK_IsHalted() -- CPU_ReadMem(2 bytes @ 0x20000000)  returns TRUE (0013ms, 0810ms total)
T794C 001:146 JLINK_ReadReg(R15 (PC))  returns 0x20000000 (0000ms, 0797ms total)
T794C 001:146 JLINK_ClrBPEx(BPHandle = 0x00000002)  returns 0x00 (0000ms, 0797ms total)
T794C 001:146 JLINK_ReadReg(R0)  returns 0x00000001 (0000ms, 0797ms total)
T794C 001:146 JLINK_WriteReg(R0, 0x08010000)  returns 0x00 (0000ms, 0797ms total)
T794C 001:146 JLINK_WriteReg(R1, 0x00010000)  returns 0x00 (0000ms, 0797ms total)
T794C 001:146 JLINK_WriteReg(R2, 0x000000FF)  returns 0x00 (0000ms, 0797ms total)
T794C 001:146 JLINK_WriteReg(R3, 0x00000000)  returns 0x00 (0000ms, 0797ms total)
T794C 001:146 JLINK_WriteReg(R4, 0x00000000)  returns 0x00 (0000ms, 0797ms total)
T794C 001:146 JLINK_WriteReg(R5, 0x00000000)  returns 0x00 (0000ms, 0797ms total)
T794C 001:146 JLINK_WriteReg(R6, 0x00000000)  returns 0x00 (0000ms, 0797ms total)
T794C 001:146 JLINK_WriteReg(R7, 0x00000000)  returns 0x00 (0000ms, 0797ms total)
T794C 001:146 JLINK_WriteReg(R8, 0x00000000)  returns 0x00 (0000ms, 0797ms total)
T794C 001:146 JLINK_WriteReg(R9, 0x20000184)  returns 0x00 (0000ms, 0797ms total)
T794C 001:146 JLINK_WriteReg(R10, 0x00000000)  returns 0x00 (0000ms, 0797ms total)
T794C 001:146 JLINK_WriteReg(R11, 0x00000000)  returns 0x00 (0000ms, 0797ms total)
T794C 001:146 JLINK_WriteReg(R12, 0x00000000)  returns 0x00 (0000ms, 0797ms total)
T794C 001:146 JLINK_WriteReg(R13 (SP), 0x20001000)  returns 0x00 (0000ms, 0797ms total)
T794C 001:146 JLINK_WriteReg(R14, 0x20000001)  returns 0x00 (0000ms, 0797ms total)
T794C 001:146 JLINK_WriteReg(R15 (PC), 0x200000C6)  returns 0x00 (0001ms, 0798ms total)
T794C 001:147 JLINK_WriteReg(XPSR, 0x01000000)  returns 0x00 (0000ms, 0798ms total)
T794C 001:147 JLINK_WriteReg(MSP, 0x20001000)  returns 0x00 (0000ms, 0798ms total)
T794C 001:147 JLINK_WriteReg(PSP, 0x20001000)  returns 0x00 (0000ms, 0798ms total)
T794C 001:147 JLINK_WriteReg(CFBP, 0x00000000)  returns 0x00 (0000ms, 0798ms total)
T794C 001:147 JLINK_SetBPEx(Addr = 0x20000000, Type = 0xFFFFFFF2)  returns 0x00000003 (0000ms, 0798ms total)
T794C 001:147 JLINK_Go() -- CPU_ReadMem(4 bytes @ 0xE0001000) (0004ms, 0802ms total)
T794C 001:151 JLINK_IsHalted()  returns FALSE (0001ms, 0803ms total)
T794C 001:461 JLINK_IsHalted() -- CPU_ReadMem(2 bytes @ 0x20000000)  returns TRUE (0011ms, 0813ms total)
T794C 001:472 JLINK_ReadReg(R15 (PC))  returns 0x20000000 (0000ms, 0802ms total)
T794C 001:472 JLINK_ClrBPEx(BPHandle = 0x00000003)  returns 0x00 (0000ms, 0802ms total)
T794C 001:472 JLINK_ReadReg(R0)  returns 0x00000000 (0000ms, 0802ms total)
T794C 001:474 JLINK_WriteReg(R0, 0x00000001)  returns 0x00 (0000ms, 0802ms total)
T794C 001:474 JLINK_WriteReg(R1, 0x00010000)  returns 0x00 (0000ms, 0802ms total)
T794C 001:474 JLINK_WriteReg(R2, 0x000000FF)  returns 0x00 (0000ms, 0802ms total)
T794C 001:474 JLINK_WriteReg(R3, 0x00000000)  returns 0x00 (0000ms, 0802ms total)
T794C 001:474 JLINK_WriteReg(R4, 0x00000000)  returns 0x00 (0000ms, 0802ms total)
T794C 001:474 JLINK_WriteReg(R5, 0x00000000)  returns 0x00 (0000ms, 0802ms total)
T794C 001:474 JLINK_WriteReg(R6, 0x00000000)  returns 0x00 (0000ms, 0802ms total)
T794C 001:474 JLINK_WriteReg(R7, 0x00000000)  returns 0x00 (0000ms, 0802ms total)
T794C 001:474 JLINK_WriteReg(R8, 0x00000000)  returns 0x00 (0000ms, 0802ms total)
T794C 001:474 JLINK_WriteReg(R9, 0x20000184)  returns 0x00 (0000ms, 0802ms total)
T794C 001:474 JLINK_WriteReg(R10, 0x00000000)  returns 0x00 (0000ms, 0802ms total)
T794C 001:474 JLINK_WriteReg(R11, 0x00000000)  returns 0x00 (0000ms, 0802ms total)
T794C 001:474 JLINK_WriteReg(R12, 0x00000000)  returns 0x00 (0000ms, 0802ms total)
T794C 001:474 JLINK_WriteReg(R13 (SP), 0x20001000)  returns 0x00 (0000ms, 0802ms total)
T794C 001:474 JLINK_WriteReg(R14, 0x20000001)  returns 0x00 (0000ms, 0802ms total)
T794C 001:474 JLINK_WriteReg(R15 (PC), 0x2000008C)  returns 0x00 (0000ms, 0802ms total)
T794C 001:474 JLINK_WriteReg(XPSR, 0x01000000)  returns 0x00 (0000ms, 0802ms total)
T794C 001:474 JLINK_WriteReg(MSP, 0x20001000)  returns 0x00 (0000ms, 0802ms total)
T794C 001:474 JLINK_WriteReg(PSP, 0x20001000)  returns 0x00 (0000ms, 0802ms total)
T794C 001:474 JLINK_WriteReg(CFBP, 0x00000000)  returns 0x00 (0000ms, 0802ms total)
T794C 001:475 JLINK_SetBPEx(Addr = 0x20000000, Type = 0xFFFFFFF2)  returns 0x00000004 (0000ms, 0802ms total)
T794C 001:475 JLINK_Go() -- CPU_ReadMem(4 bytes @ 0xE0001000) (0005ms, 0807ms total)
T794C 001:480 JLINK_IsHalted() -- CPU_ReadMem(2 bytes @ 0x20000000)  returns TRUE (0012ms, 0819ms total)
T794C 001:492 JLINK_ReadReg(R15 (PC))  returns 0x20000000 (0000ms, 0807ms total)
T794C 001:492 JLINK_ClrBPEx(BPHandle = 0x00000004)  returns 0x00 (0000ms, 0807ms total)
T794C 001:492 JLINK_ReadReg(R0)  returns 0x00000000 (0000ms, 0807ms total)
T794C 001:555 JLINK_WriteMem(0x20000000, 0x0188 Bytes, ...) - Data: 00 BE 0A E0 0D 78 2D 06 68 40 08 24 40 00 00 D3 ... -- CPU_WriteMem(392 bytes @ 0x20000000)  returns 0x188 (0010ms, 0817ms total)
T794C 001:565 JLINK_WriteReg(R0, 0x08000000)  returns 0x00 (0000ms, 0817ms total)
T794C 001:565 JLINK_WriteReg(R1, 0x00B71B00)  returns 0x00 (0000ms, 0817ms total)
T794C 001:565 JLINK_WriteReg(R2, 0x00000002)  returns 0x00 (0000ms, 0817ms total)
T794C 001:565 JLINK_WriteReg(R3, 0x00000000)  returns 0x00 (0000ms, 0817ms total)
T794C 001:565 JLINK_WriteReg(R4, 0x00000000)  returns 0x00 (0000ms, 0817ms total)
T794C 001:565 JLINK_WriteReg(R5, 0x00000000)  returns 0x00 (0000ms, 0817ms total)
T794C 001:565 JLINK_WriteReg(R6, 0x00000000)  returns 0x00 (0000ms, 0817ms total)
T794C 001:565 JLINK_WriteReg(R7, 0x00000000)  returns 0x00 (0000ms, 0817ms total)
T794C 001:565 JLINK_WriteReg(R8, 0x00000000)  returns 0x00 (0000ms, 0817ms total)
T794C 001:565 JLINK_WriteReg(R9, 0x20000184)  returns 0x00 (0000ms, 0817ms total)
T794C 001:565 JLINK_WriteReg(R10, 0x00000000)  returns 0x00 (0000ms, 0817ms total)
T794C 001:565 JLINK_WriteReg(R11, 0x00000000)  returns 0x00 (0000ms, 0817ms total)
T794C 001:565 JLINK_WriteReg(R12, 0x00000000)  returns 0x00 (0000ms, 0817ms total)
T794C 001:565 JLINK_WriteReg(R13 (SP), 0x20001000)  returns 0x00 (0000ms, 0817ms total)
T794C 001:565 JLINK_WriteReg(R14, 0x20000001)  returns 0x00 (0000ms, 0817ms total)
T794C 001:565 JLINK_WriteReg(R15 (PC), 0x2000005E)  returns 0x00 (0000ms, 0817ms total)
T794C 001:565 JLINK_WriteReg(XPSR, 0x01000000)  returns 0x00 (0000ms, 0817ms total)
T794C 001:565 JLINK_WriteReg(MSP, 0x20001000)  returns 0x00 (0000ms, 0817ms total)
T794C 001:565 JLINK_WriteReg(PSP, 0x20001000)  returns 0x00 (0000ms, 0817ms total)
T794C 001:565 JLINK_WriteReg(CFBP, 0x00000000)  returns 0x00 (0000ms, 0817ms total)
T794C 001:565 JLINK_SetBPEx(Addr = 0x20000000, Type = 0xFFFFFFF2) -- CPU_ReadMem(2 bytes @ 0x20000000)  returns 0x00000005 (0001ms, 0818ms total)
T794C 001:566 JLINK_Go() -- CPU_WriteMem(2 bytes @ 0x20000000) -- CPU_ReadMem(4 bytes @ 0xE0001000) (0006ms, 0824ms total)
T794C 001:572 JLINK_IsHalted() -- CPU_ReadMem(2 bytes @ 0x20000000)  returns TRUE (0012ms, 0836ms total)
T794C 001:584 JLINK_ReadReg(R15 (PC))  returns 0x20000000 (0000ms, 0824ms total)
T794C 001:584 JLINK_ClrBPEx(BPHandle = 0x00000005)  returns 0x00 (0000ms, 0824ms total)
T794C 001:584 JLINK_ReadReg(R0)  returns 0x00000000 (0000ms, 0824ms total)
T794C 001:584 JLINK_WriteMem(0x20000188, 0x0400 Bytes, ...) - Data: 48 DC 00 20 5D 02 01 08 71 4A 01 08 4D 40 01 08 ... -- CPU_WriteMem(1024 bytes @ 0x20000188)  returns 0x400 (0026ms, 0850ms total)
T794C 001:610 JLINK_WriteReg(R0, 0x08010000)  returns 0x00 (0000ms, 0850ms total)
T794C 001:610 JLINK_WriteReg(R1, 0x00000400)  returns 0x00 (0000ms, 0850ms total)
T794C 001:610 JLINK_WriteReg(R2, 0x20000188)  returns 0x00 (0000ms, 0850ms total)
T794C 001:610 JLINK_WriteReg(R3, 0x00000000)  returns 0x00 (0000ms, 0850ms total)
T794C 001:610 JLINK_WriteReg(R4, 0x00000000)  returns 0x00 (0000ms, 0850ms total)
T794C 001:610 JLINK_WriteReg(R5, 0x00000000)  returns 0x00 (0000ms, 0850ms total)
T794C 001:610 JLINK_WriteReg(R6, 0x00000000)  returns 0x00 (0000ms, 0850ms total)
T794C 001:610 JLINK_WriteReg(R7, 0x00000000)  returns 0x00 (0000ms, 0850ms total)
T794C 001:610 JLINK_WriteReg(R8, 0x00000000)  returns 0x00 (0000ms, 0850ms total)
T794C 001:610 JLINK_WriteReg(R9, 0x20000184)  returns 0x00 (0000ms, 0850ms total)
T794C 001:610 JLINK_WriteReg(R10, 0x00000000)  returns 0x00 (0000ms, 0850ms total)
T794C 001:610 JLINK_WriteReg(R11, 0x00000000)  returns 0x00 (0000ms, 0850ms total)
T794C 001:611 JLINK_WriteReg(R12, 0x00000000)  returns 0x00 (0000ms, 0851ms total)
T794C 001:611 JLINK_WriteReg(R13 (SP), 0x20001000)  returns 0x00 (0000ms, 0851ms total)
T794C 001:611 JLINK_WriteReg(R14, 0x20000001)  returns 0x00 (0000ms, 0851ms total)
T794C 001:611 JLINK_WriteReg(R15 (PC), 0x20000112)  returns 0x00 (0000ms, 0851ms total)
T794C 001:611 JLINK_WriteReg(XPSR, 0x01000000)  returns 0x00 (0000ms, 0851ms total)
T794C 001:611 JLINK_WriteReg(MSP, 0x20001000)  returns 0x00 (0000ms, 0851ms total)
T794C 001:611 JLINK_WriteReg(PSP, 0x20001000)  returns 0x00 (0000ms, 0851ms total)
T794C 001:611 JLINK_WriteReg(CFBP, 0x00000000)  returns 0x00 (0000ms, 0851ms total)
T794C 001:611 JLINK_SetBPEx(Addr = 0x20000000, Type = 0xFFFFFFF2)  returns 0x00000006 (0000ms, 0851ms total)
T794C 001:611 JLINK_Go() -- CPU_ReadMem(4 bytes @ 0xE0001000) (0005ms, 0856ms total)
T794C 001:616 JLINK_IsHalted()  returns FALSE (0001ms, 0857ms total)
T794C 001:635 JLINK_IsHalted() -- CPU_ReadMem(2 bytes @ 0x20000000)  returns TRUE (0011ms, 0867ms total)
T794C 001:646 JLINK_ReadReg(R15 (PC))  returns 0x20000000 (0000ms, 0856ms total)
T794C 001:646 JLINK_ClrBPEx(BPHandle = 0x00000006)  returns 0x00 (0000ms, 0856ms total)
T794C 001:646 JLINK_ReadReg(R0)  returns 0x00000000 (0000ms, 0856ms total)
T794C 001:648 JLINK_WriteMem(0x20000188, 0x0400 Bytes, ...) - Data: 01 46 91 46 5F 46 4F F0 00 08 A9 69 7F 1C 01 98 ... -- CPU_WriteMem(1024 bytes @ 0x20000188)  returns 0x400 (0025ms, 0881ms total)
T794C 001:673 JLINK_WriteReg(R0, 0x08010400)  returns 0x00 (0000ms, 0881ms total)
T794C 001:673 JLINK_WriteReg(R1, 0x00000400)  returns 0x00 (0000ms, 0881ms total)
T794C 001:673 JLINK_WriteReg(R2, 0x20000188)  returns 0x00 (0000ms, 0881ms total)
T794C 001:673 JLINK_WriteReg(R3, 0x00000000)  returns 0x00 (0000ms, 0881ms total)
T794C 001:673 JLINK_WriteReg(R4, 0x00000000)  returns 0x00 (0000ms, 0881ms total)
T794C 001:673 JLINK_WriteReg(R5, 0x00000000)  returns 0x00 (0000ms, 0881ms total)
T794C 001:673 JLINK_WriteReg(R6, 0x00000000)  returns 0x00 (0000ms, 0881ms total)
T794C 001:673 JLINK_WriteReg(R7, 0x00000000)  returns 0x00 (0000ms, 0881ms total)
T794C 001:673 JLINK_WriteReg(R8, 0x00000000)  returns 0x00 (0000ms, 0881ms total)
T794C 001:673 JLINK_WriteReg(R9, 0x20000184)  returns 0x00 (0000ms, 0881ms total)
T794C 001:673 JLINK_WriteReg(R10, 0x00000000)  returns 0x00 (0000ms, 0881ms total)
T794C 001:673 JLINK_WriteReg(R11, 0x00000000)  returns 0x00 (0000ms, 0881ms total)
T794C 001:673 JLINK_WriteReg(R12, 0x00000000)  returns 0x00 (0000ms, 0881ms total)
T794C 001:673 JLINK_WriteReg(R13 (SP), 0x20001000)  returns 0x00 (0001ms, 0882ms total)
T794C 001:674 JLINK_WriteReg(R14, 0x20000001)  returns 0x00 (0000ms, 0882ms total)
T794C 001:674 JLINK_WriteReg(R15 (PC), 0x20000112)  returns 0x00 (0000ms, 0882ms total)
T794C 001:674 JLINK_WriteReg(XPSR, 0x01000000)  returns 0x00 (0000ms, 0882ms total)
T794C 001:674 JLINK_WriteReg(MSP, 0x20001000)  returns 0x00 (0000ms, 0882ms total)
T794C 001:674 JLINK_WriteReg(PSP, 0x20001000)  returns 0x00 (0000ms, 0882ms total)
T794C 001:674 JLINK_WriteReg(CFBP, 0x00000000)  returns 0x00 (0000ms, 0882ms total)
T794C 001:674 JLINK_SetBPEx(Addr = 0x20000000, Type = 0xFFFFFFF2)  returns 0x00000007 (0000ms, 0882ms total)
T794C 001:674 JLINK_Go() -- CPU_ReadMem(4 bytes @ 0xE0001000) (0006ms, 0888ms total)
T794C 001:680 JLINK_IsHalted()  returns FALSE (0000ms, 0888ms total)
T794C 001:723 JLINK_IsHalted() -- CPU_ReadMem(2 bytes @ 0x20000000)  returns TRUE (0011ms, 0899ms total)
T794C 001:734 JLINK_ReadReg(R15 (PC))  returns 0x20000000 (0000ms, 0888ms total)
T794C 001:734 JLINK_ClrBPEx(BPHandle = 0x00000007)  returns 0x00 (0000ms, 0888ms total)
T794C 001:734 JLINK_ReadReg(R0)  returns 0x00000000 (0000ms, 0888ms total)
T794C 001:735 JLINK_WriteMem(0x20000188, 0x0400 Bytes, ...) - Data: 62 69 01 21 01 98 90 47 6C 28 02 D0 45 F0 04 05 ... -- CPU_WriteMem(1024 bytes @ 0x20000188)  returns 0x400 (0026ms, 0914ms total)
T794C 001:761 JLINK_WriteReg(R0, 0x08010800)  returns 0x00 (0000ms, 0914ms total)
T794C 001:761 JLINK_WriteReg(R1, 0x00000400)  returns 0x00 (0000ms, 0914ms total)
T794C 001:761 JLINK_WriteReg(R2, 0x20000188)  returns 0x00 (0000ms, 0914ms total)
T794C 001:761 JLINK_WriteReg(R3, 0x00000000)  returns 0x00 (0000ms, 0914ms total)
T794C 001:761 JLINK_WriteReg(R4, 0x00000000)  returns 0x00 (0001ms, 0915ms total)
T794C 001:762 JLINK_WriteReg(R5, 0x00000000)  returns 0x00 (0000ms, 0915ms total)
T794C 001:762 JLINK_WriteReg(R6, 0x00000000)  returns 0x00 (0000ms, 0915ms total)
T794C 001:762 JLINK_WriteReg(R7, 0x00000000)  returns 0x00 (0000ms, 0915ms total)
T794C 001:762 JLINK_WriteReg(R8, 0x00000000)  returns 0x00 (0000ms, 0915ms total)
T794C 001:762 JLINK_WriteReg(R9, 0x20000184)  returns 0x00 (0000ms, 0915ms total)
T794C 001:762 JLINK_WriteReg(R10, 0x00000000)  returns 0x00 (0000ms, 0915ms total)
T794C 001:762 JLINK_WriteReg(R11, 0x00000000)  returns 0x00 (0000ms, 0915ms total)
T794C 001:762 JLINK_WriteReg(R12, 0x00000000)  returns 0x00 (0000ms, 0915ms total)
T794C 001:762 JLINK_WriteReg(R13 (SP), 0x20001000)  returns 0x00 (0000ms, 0915ms total)
T794C 001:762 JLINK_WriteReg(R14, 0x20000001)  returns 0x00 (0000ms, 0915ms total)
T794C 001:762 JLINK_WriteReg(R15 (PC), 0x20000112)  returns 0x00 (0000ms, 0915ms total)
T794C 001:762 JLINK_WriteReg(XPSR, 0x01000000)  returns 0x00 (0000ms, 0915ms total)
T794C 001:762 JLINK_WriteReg(MSP, 0x20001000)  returns 0x00 (0000ms, 0915ms total)
T794C 001:762 JLINK_WriteReg(PSP, 0x20001000)  returns 0x00 (0000ms, 0915ms total)
T794C 001:762 JLINK_WriteReg(CFBP, 0x00000000)  returns 0x00 (0000ms, 0915ms total)
T794C 001:762 JLINK_SetBPEx(Addr = 0x20000000, Type = 0xFFFFFFF2)  returns 0x00000008 (0000ms, 0915ms total)
T794C 001:762 JLINK_Go() -- CPU_ReadMem(4 bytes @ 0xE0001000) (0005ms, 0920ms total)
T794C 001:767 JLINK_IsHalted()  returns FALSE (0001ms, 0921ms total)
T794C 001:775 JLINK_IsHalted()  returns FALSE (0001ms, 0921ms total)
T794C 001:778 JLINK_IsHalted()  returns FALSE (0000ms, 0920ms total)
T794C 001:786 JLINK_IsHalted() -- CPU_ReadMem(2 bytes @ 0x20000000)  returns TRUE (0012ms, 0932ms total)
T794C 001:798 JLINK_ReadReg(R15 (PC))  returns 0x20000000 (0001ms, 0921ms total)
T794C 001:799 JLINK_ClrBPEx(BPHandle = 0x00000008)  returns 0x00 (0000ms, 0921ms total)
T794C 001:799 JLINK_ReadReg(R0)  returns 0x00000000 (0000ms, 0921ms total)
T794C 001:799 JLINK_WriteMem(0x20000188, 0x0400 Bytes, ...) - Data: 03 7E 42 EA 43 02 8A 60 90 F8 20 10 00 29 01 68 ... -- CPU_WriteMem(1024 bytes @ 0x20000188)  returns 0x400 (0025ms, 0946ms total)
T794C 001:824 JLINK_WriteReg(R0, 0x08010C00)  returns 0x00 (0000ms, 0946ms total)
T794C 001:824 JLINK_WriteReg(R1, 0x00000400)  returns 0x00 (0000ms, 0946ms total)
T794C 001:824 JLINK_WriteReg(R2, 0x20000188)  returns 0x00 (0000ms, 0946ms total)
T794C 001:824 JLINK_WriteReg(R3, 0x00000000)  returns 0x00 (0000ms, 0946ms total)
T794C 001:824 JLINK_WriteReg(R4, 0x00000000)  returns 0x00 (0000ms, 0946ms total)
T794C 001:824 JLINK_WriteReg(R5, 0x00000000)  returns 0x00 (0000ms, 0946ms total)
T794C 001:824 JLINK_WriteReg(R6, 0x00000000)  returns 0x00 (0000ms, 0946ms total)
T794C 001:824 JLINK_WriteReg(R7, 0x00000000)  returns 0x00 (0000ms, 0946ms total)
T794C 001:824 JLINK_WriteReg(R8, 0x00000000)  returns 0x00 (0000ms, 0946ms total)
T794C 001:824 JLINK_WriteReg(R9, 0x20000184)  returns 0x00 (0000ms, 0946ms total)
T794C 001:824 JLINK_WriteReg(R10, 0x00000000)  returns 0x00 (0000ms, 0946ms total)
T794C 001:824 JLINK_WriteReg(R11, 0x00000000)  returns 0x00 (0000ms, 0946ms total)
T794C 001:824 JLINK_WriteReg(R12, 0x00000000)  returns 0x00 (0000ms, 0946ms total)
T794C 001:824 JLINK_WriteReg(R13 (SP), 0x20001000)  returns 0x00 (0000ms, 0946ms total)
T794C 001:824 JLINK_WriteReg(R14, 0x20000001)  returns 0x00 (0000ms, 0946ms total)
T794C 001:824 JLINK_WriteReg(R15 (PC), 0x20000112)  returns 0x00 (0001ms, 0947ms total)
T794C 001:825 JLINK_WriteReg(XPSR, 0x01000000)  returns 0x00 (0000ms, 0947ms total)
T794C 001:825 JLINK_WriteReg(MSP, 0x20001000)  returns 0x00 (0000ms, 0947ms total)
T794C 001:825 JLINK_WriteReg(PSP, 0x20001000)  returns 0x00 (0000ms, 0947ms total)
T794C 001:825 JLINK_WriteReg(CFBP, 0x00000000)  returns 0x00 (0000ms, 0947ms total)
T794C 001:825 JLINK_SetBPEx(Addr = 0x20000000, Type = 0xFFFFFFF2)  returns 0x00000009 (0000ms, 0947ms total)
T794C 001:825 JLINK_Go() -- CPU_ReadMem(4 bytes @ 0xE0001000) (0006ms, 0953ms total)
T794C 001:831 JLINK_IsHalted()  returns FALSE (0001ms, 0954ms total)
T794C 001:843 JLINK_IsHalted()  returns FALSE (0000ms, 0953ms total)
T794C 001:845 JLINK_IsHalted()  returns FALSE (0000ms, 0953ms total)
T794C 001:848 JLINK_IsHalted() -- CPU_ReadMem(2 bytes @ 0x20000000)  returns TRUE (0011ms, 0964ms total)
T794C 001:859 JLINK_ReadReg(R15 (PC))  returns 0x20000000 (0000ms, 0953ms total)
T794C 001:859 JLINK_ClrBPEx(BPHandle = 0x00000009)  returns 0x00 (0000ms, 0953ms total)
T794C 001:859 JLINK_ReadReg(R0)  returns 0x00000000 (0000ms, 0953ms total)
T794C 001:861 JLINK_WriteMem(0x20000188, 0x0400 Bytes, ...) - Data: B2 46 AC 1E 47 46 A1 B2 40 46 00 F0 EF FA 2F 44 ... -- CPU_WriteMem(1024 bytes @ 0x20000188)  returns 0x400 (0025ms, 0978ms total)
T794C 001:886 JLINK_WriteReg(R0, 0x08011000)  returns 0x00 (0000ms, 0978ms total)
T794C 001:886 JLINK_WriteReg(R1, 0x00000400)  returns 0x00 (0000ms, 0978ms total)
T794C 001:886 JLINK_WriteReg(R2, 0x20000188)  returns 0x00 (0000ms, 0978ms total)
T794C 001:886 JLINK_WriteReg(R3, 0x00000000)  returns 0x00 (0000ms, 0978ms total)
T794C 001:886 JLINK_WriteReg(R4, 0x00000000)  returns 0x00 (0000ms, 0978ms total)
T794C 001:886 JLINK_WriteReg(R5, 0x00000000)  returns 0x00 (0000ms, 0978ms total)
T794C 001:886 JLINK_WriteReg(R6, 0x00000000)  returns 0x00 (0000ms, 0978ms total)
T794C 001:886 JLINK_WriteReg(R7, 0x00000000)  returns 0x00 (0000ms, 0978ms total)
T794C 001:886 JLINK_WriteReg(R8, 0x00000000)  returns 0x00 (0000ms, 0978ms total)
T794C 001:886 JLINK_WriteReg(R9, 0x20000184)  returns 0x00 (0000ms, 0978ms total)
T794C 001:886 JLINK_WriteReg(R10, 0x00000000)  returns 0x00 (0000ms, 0978ms total)
T794C 001:886 JLINK_WriteReg(R11, 0x00000000)  returns 0x00 (0000ms, 0978ms total)
T794C 001:886 JLINK_WriteReg(R12, 0x00000000)  returns 0x00 (0000ms, 0978ms total)
T794C 001:886 JLINK_WriteReg(R13 (SP), 0x20001000)  returns 0x00 (0000ms, 0978ms total)
T794C 001:886 JLINK_WriteReg(R14, 0x20000001)  returns 0x00 (0000ms, 0978ms total)
T794C 001:886 JLINK_WriteReg(R15 (PC), 0x20000112)  returns 0x00 (0000ms, 0978ms total)
T794C 001:886 JLINK_WriteReg(XPSR, 0x01000000)  returns 0x00 (0000ms, 0978ms total)
T794C 001:886 JLINK_WriteReg(MSP, 0x20001000)  returns 0x00 (0000ms, 0978ms total)
T794C 001:886 JLINK_WriteReg(PSP, 0x20001000)  returns 0x00 (0000ms, 0978ms total)
T794C 001:886 JLINK_WriteReg(CFBP, 0x00000000)  returns 0x00 (0000ms, 0978ms total)
T794C 001:886 JLINK_SetBPEx(Addr = 0x20000000, Type = 0xFFFFFFF2)  returns 0x0000000A (0000ms, 0978ms total)
T794C 001:886 JLINK_Go() -- CPU_ReadMem(4 bytes @ 0xE0001000) (0006ms, 0984ms total)
T794C 001:892 JLINK_IsHalted()  returns FALSE (0001ms, 0985ms total)
T794C 001:900 JLINK_IsHalted()  returns FALSE (0001ms, 0985ms total)
T794C 001:903 JLINK_IsHalted()  returns FALSE (0000ms, 0984ms total)
T794C 001:906 JLINK_IsHalted()  returns FALSE (0000ms, 0984ms total)
T794C 001:908 JLINK_IsHalted() -- CPU_ReadMem(2 bytes @ 0x20000000)  returns TRUE (0012ms, 0996ms total)
T794C 001:920 JLINK_ReadReg(R15 (PC))  returns 0x20000000 (0000ms, 0984ms total)
T794C 001:920 JLINK_ClrBPEx(BPHandle = 0x0000000A)  returns 0x00 (0000ms, 0984ms total)
T794C 001:920 JLINK_ReadReg(R0)  returns 0x00000000 (0000ms, 0984ms total)
T794C 001:921 JLINK_WriteMem(0x20000188, 0x0400 Bytes, ...) - Data: 00 10 02 40 3C 40 00 20 FF E7 40 F0 03 00 95 E7 ... -- CPU_WriteMem(1024 bytes @ 0x20000188)  returns 0x400 (0026ms, 1010ms total)
T794C 001:947 JLINK_WriteReg(R0, 0x08011400)  returns 0x00 (0000ms, 1010ms total)
T794C 001:947 JLINK_WriteReg(R1, 0x00000400)  returns 0x00 (0000ms, 1010ms total)
T794C 001:947 JLINK_WriteReg(R2, 0x20000188)  returns 0x00 (0000ms, 1010ms total)
T794C 001:947 JLINK_WriteReg(R3, 0x00000000)  returns 0x00 (0000ms, 1010ms total)
T794C 001:947 JLINK_WriteReg(R4, 0x00000000)  returns 0x00 (0000ms, 1010ms total)
T794C 001:947 JLINK_WriteReg(R5, 0x00000000)  returns 0x00 (0000ms, 1010ms total)
T794C 001:947 JLINK_WriteReg(R6, 0x00000000)  returns 0x00 (0000ms, 1010ms total)
T794C 001:947 JLINK_WriteReg(R7, 0x00000000)  returns 0x00 (0000ms, 1010ms total)
T794C 001:947 JLINK_WriteReg(R8, 0x00000000)  returns 0x00 (0000ms, 1010ms total)
T794C 001:947 JLINK_WriteReg(R9, 0x20000184)  returns 0x00 (0000ms, 1010ms total)
T794C 001:947 JLINK_WriteReg(R10, 0x00000000)  returns 0x00 (0000ms, 1010ms total)
T794C 001:947 JLINK_WriteReg(R11, 0x00000000)  returns 0x00 (0000ms, 1010ms total)
T794C 001:947 JLINK_WriteReg(R12, 0x00000000)  returns 0x00 (0000ms, 1010ms total)
T794C 001:947 JLINK_WriteReg(R13 (SP), 0x20001000)  returns 0x00 (0000ms, 1010ms total)
T794C 001:947 JLINK_WriteReg(R14, 0x20000001)  returns 0x00 (0000ms, 1010ms total)
T794C 001:947 JLINK_WriteReg(R15 (PC), 0x20000112)  returns 0x00 (0000ms, 1010ms total)
T794C 001:947 JLINK_WriteReg(XPSR, 0x01000000)  returns 0x00 (0000ms, 1010ms total)
T794C 001:947 JLINK_WriteReg(MSP, 0x20001000)  returns 0x00 (0000ms, 1010ms total)
T794C 001:947 JLINK_WriteReg(PSP, 0x20001000)  returns 0x00 (0000ms, 1010ms total)
T794C 001:947 JLINK_WriteReg(CFBP, 0x00000000)  returns 0x00 (0000ms, 1010ms total)
T794C 001:947 JLINK_SetBPEx(Addr = 0x20000000, Type = 0xFFFFFFF2)  returns 0x0000000B (0000ms, 1010ms total)
T794C 001:947 JLINK_Go() -- CPU_ReadMem(4 bytes @ 0xE0001000) (0005ms, 1015ms total)
T794C 001:953 JLINK_IsHalted()  returns FALSE (0000ms, 1015ms total)
T794C 001:963 JLINK_IsHalted()  returns FALSE (0001ms, 1016ms total)
T794C 001:971 JLINK_IsHalted() -- CPU_ReadMem(2 bytes @ 0x20000000)  returns TRUE (0011ms, 1026ms total)
T794C 001:982 JLINK_ReadReg(R15 (PC))  returns 0x20000000 (0000ms, 1015ms total)
T794C 001:982 JLINK_ClrBPEx(BPHandle = 0x0000000B)  returns 0x00 (0000ms, 1015ms total)
T794C 001:982 JLINK_ReadReg(R0)  returns 0x00000000 (0000ms, 1015ms total)
T794C 001:983 JLINK_WriteMem(0x20000188, 0x0400 Bytes, ...) - Data: 01 2A 06 D0 02 2A 03 D1 C9 6A C9 01 00 D5 01 20 ... -- CPU_WriteMem(1024 bytes @ 0x20000188)  returns 0x400 (0026ms, 1041ms total)
T794C 002:009 JLINK_WriteReg(R0, 0x08011800)  returns 0x00 (0000ms, 1041ms total)
T794C 002:009 JLINK_WriteReg(R1, 0x00000400)  returns 0x00 (0000ms, 1041ms total)
T794C 002:009 JLINK_WriteReg(R2, 0x20000188)  returns 0x00 (0000ms, 1041ms total)
T794C 002:009 JLINK_WriteReg(R3, 0x00000000)  returns 0x00 (0000ms, 1041ms total)
T794C 002:009 JLINK_WriteReg(R4, 0x00000000)  returns 0x00 (0000ms, 1041ms total)
T794C 002:009 JLINK_WriteReg(R5, 0x00000000)  returns 0x00 (0000ms, 1041ms total)
T794C 002:009 JLINK_WriteReg(R6, 0x00000000)  returns 0x00 (0000ms, 1041ms total)
T794C 002:009 JLINK_WriteReg(R7, 0x00000000)  returns 0x00 (0000ms, 1041ms total)
T794C 002:009 JLINK_WriteReg(R8, 0x00000000)  returns 0x00 (0000ms, 1041ms total)
T794C 002:009 JLINK_WriteReg(R9, 0x20000184)  returns 0x00 (0000ms, 1041ms total)
T794C 002:009 JLINK_WriteReg(R10, 0x00000000)  returns 0x00 (0000ms, 1041ms total)
T794C 002:009 JLINK_WriteReg(R11, 0x00000000)  returns 0x00 (0000ms, 1041ms total)
T794C 002:009 JLINK_WriteReg(R12, 0x00000000)  returns 0x00 (0000ms, 1041ms total)
T794C 002:009 JLINK_WriteReg(R13 (SP), 0x20001000)  returns 0x00 (0000ms, 1041ms total)
T794C 002:009 JLINK_WriteReg(R14, 0x20000001)  returns 0x00 (0000ms, 1041ms total)
T794C 002:009 JLINK_WriteReg(R15 (PC), 0x20000112)  returns 0x00 (0000ms, 1041ms total)
T794C 002:009 JLINK_WriteReg(XPSR, 0x01000000)  returns 0x00 (0000ms, 1041ms total)
T794C 002:009 JLINK_WriteReg(MSP, 0x20001000)  returns 0x00 (0000ms, 1041ms total)
T794C 002:009 JLINK_WriteReg(PSP, 0x20001000)  returns 0x00 (0000ms, 1041ms total)
T794C 002:009 JLINK_WriteReg(CFBP, 0x00000000)  returns 0x00 (0000ms, 1041ms total)
T794C 002:009 JLINK_SetBPEx(Addr = 0x20000000, Type = 0xFFFFFFF2)  returns 0x0000000C (0000ms, 1041ms total)
T794C 002:009 JLINK_Go() -- CPU_ReadMem(4 bytes @ 0xE0001000) (0006ms, 1047ms total)
T794C 002:015 JLINK_IsHalted()  returns FALSE (0001ms, 1048ms total)
T794C 002:023 JLINK_IsHalted()  returns FALSE (0001ms, 1048ms total)
T794C 002:025 JLINK_IsHalted()  returns FALSE (0000ms, 1047ms total)
T794C 002:028 JLINK_IsHalted()  returns FALSE (0001ms, 1048ms total)
T794C 002:031 JLINK_IsHalted() -- CPU_ReadMem(2 bytes @ 0x20000000)  returns TRUE (0012ms, 1059ms total)
T794C 002:043 JLINK_ReadReg(R15 (PC))  returns 0x20000000 (0000ms, 1047ms total)
T794C 002:043 JLINK_ClrBPEx(BPHandle = 0x0000000C)  returns 0x00 (0000ms, 1047ms total)
T794C 002:043 JLINK_ReadReg(R0)  returns 0x00000000 (0000ms, 1047ms total)
T794C 002:044 JLINK_WriteMem(0x20000188, 0x0400 Bytes, ...) - Data: 70 47 70 47 70 B5 04 46 00 68 01 68 42 68 C1 F3 ... -- CPU_WriteMem(1024 bytes @ 0x20000188)  returns 0x400 (0025ms, 1072ms total)
T794C 002:069 JLINK_WriteReg(R0, 0x08011C00)  returns 0x00 (0001ms, 1073ms total)
T794C 002:070 JLINK_WriteReg(R1, 0x00000400)  returns 0x00 (0000ms, 1073ms total)
T794C 002:070 JLINK_WriteReg(R2, 0x20000188)  returns 0x00 (0000ms, 1073ms total)
T794C 002:070 JLINK_WriteReg(R3, 0x00000000)  returns 0x00 (0000ms, 1073ms total)
T794C 002:070 JLINK_WriteReg(R4, 0x00000000)  returns 0x00 (0000ms, 1073ms total)
T794C 002:070 JLINK_WriteReg(R5, 0x00000000)  returns 0x00 (0000ms, 1073ms total)
T794C 002:070 JLINK_WriteReg(R6, 0x00000000)  returns 0x00 (0000ms, 1073ms total)
T794C 002:070 JLINK_WriteReg(R7, 0x00000000)  returns 0x00 (0000ms, 1073ms total)
T794C 002:070 JLINK_WriteReg(R8, 0x00000000)  returns 0x00 (0000ms, 1073ms total)
T794C 002:070 JLINK_WriteReg(R9, 0x20000184)  returns 0x00 (0000ms, 1073ms total)
T794C 002:070 JLINK_WriteReg(R10, 0x00000000)  returns 0x00 (0000ms, 1073ms total)
T794C 002:070 JLINK_WriteReg(R11, 0x00000000)  returns 0x00 (0000ms, 1073ms total)
T794C 002:070 JLINK_WriteReg(R12, 0x00000000)  returns 0x00 (0000ms, 1073ms total)
T794C 002:070 JLINK_WriteReg(R13 (SP), 0x20001000)  returns 0x00 (0000ms, 1073ms total)
T794C 002:070 JLINK_WriteReg(R14, 0x20000001)  returns 0x00 (0000ms, 1073ms total)
T794C 002:070 JLINK_WriteReg(R15 (PC), 0x20000112)  returns 0x00 (0000ms, 1073ms total)
T794C 002:070 JLINK_WriteReg(XPSR, 0x01000000)  returns 0x00 (0000ms, 1073ms total)
T794C 002:070 JLINK_WriteReg(MSP, 0x20001000)  returns 0x00 (0000ms, 1073ms total)
T794C 002:070 JLINK_WriteReg(PSP, 0x20001000)  returns 0x00 (0000ms, 1073ms total)
T794C 002:070 JLINK_WriteReg(CFBP, 0x00000000)  returns 0x00 (0000ms, 1073ms total)
T794C 002:070 JLINK_SetBPEx(Addr = 0x20000000, Type = 0xFFFFFFF2)  returns 0x0000000D (0000ms, 1073ms total)
T794C 002:070 JLINK_Go() -- CPU_ReadMem(4 bytes @ 0xE0001000) (0006ms, 1079ms total)
T794C 002:076 JLINK_IsHalted()  returns FALSE (0001ms, 1080ms total)
T794C 002:089 JLINK_IsHalted()  returns FALSE (0001ms, 1080ms total)
T794C 002:092 JLINK_IsHalted() -- CPU_ReadMem(2 bytes @ 0x20000000)  returns TRUE (0011ms, 1090ms total)
T794C 002:104 JLINK_ReadReg(R15 (PC))  returns 0x20000000 (0000ms, 1079ms total)
T794C 002:104 JLINK_ClrBPEx(BPHandle = 0x0000000D)  returns 0x00 (0000ms, 1079ms total)
T794C 002:104 JLINK_ReadReg(R0)  returns 0x00000000 (0000ms, 1079ms total)
T794C 002:105 JLINK_WriteMem(0x20000188, 0x0400 Bytes, ...) - Data: 2D E9 F8 43 04 46 4F F0 00 09 CD F8 00 90 63 48 ... -- CPU_WriteMem(1024 bytes @ 0x20000188)  returns 0x400 (0026ms, 1105ms total)
T794C 002:131 JLINK_WriteReg(R0, 0x08012000)  returns 0x00 (0000ms, 1105ms total)
T794C 002:131 JLINK_WriteReg(R1, 0x00000400)  returns 0x00 (0000ms, 1105ms total)
T794C 002:131 JLINK_WriteReg(R2, 0x20000188)  returns 0x00 (0000ms, 1105ms total)
T794C 002:131 JLINK_WriteReg(R3, 0x00000000)  returns 0x00 (0000ms, 1105ms total)
T794C 002:131 JLINK_WriteReg(R4, 0x00000000)  returns 0x00 (0000ms, 1105ms total)
T794C 002:132 JLINK_WriteReg(R5, 0x00000000)  returns 0x00 (0000ms, 1106ms total)
T794C 002:132 JLINK_WriteReg(R6, 0x00000000)  returns 0x00 (0000ms, 1106ms total)
T794C 002:132 JLINK_WriteReg(R7, 0x00000000)  returns 0x00 (0000ms, 1106ms total)
T794C 002:132 JLINK_WriteReg(R8, 0x00000000)  returns 0x00 (0000ms, 1106ms total)
T794C 002:132 JLINK_WriteReg(R9, 0x20000184)  returns 0x00 (0000ms, 1106ms total)
T794C 002:132 JLINK_WriteReg(R10, 0x00000000)  returns 0x00 (0000ms, 1106ms total)
T794C 002:132 JLINK_WriteReg(R11, 0x00000000)  returns 0x00 (0000ms, 1106ms total)
T794C 002:132 JLINK_WriteReg(R12, 0x00000000)  returns 0x00 (0000ms, 1106ms total)
T794C 002:132 JLINK_WriteReg(R13 (SP), 0x20001000)  returns 0x00 (0000ms, 1106ms total)
T794C 002:132 JLINK_WriteReg(R14, 0x20000001)  returns 0x00 (0000ms, 1106ms total)
T794C 002:132 JLINK_WriteReg(R15 (PC), 0x20000112)  returns 0x00 (0000ms, 1106ms total)
T794C 002:132 JLINK_WriteReg(XPSR, 0x01000000)  returns 0x00 (0000ms, 1106ms total)
T794C 002:132 JLINK_WriteReg(MSP, 0x20001000)  returns 0x00 (0000ms, 1106ms total)
T794C 002:132 JLINK_WriteReg(PSP, 0x20001000)  returns 0x00 (0000ms, 1106ms total)
T794C 002:132 JLINK_WriteReg(CFBP, 0x00000000)  returns 0x00 (0000ms, 1106ms total)
T794C 002:132 JLINK_SetBPEx(Addr = 0x20000000, Type = 0xFFFFFFF2)  returns 0x0000000E (0000ms, 1106ms total)
T794C 002:132 JLINK_Go() -- CPU_ReadMem(4 bytes @ 0xE0001000) (0006ms, 1112ms total)
T794C 002:138 JLINK_IsHalted()  returns FALSE (0001ms, 1113ms total)
T794C 002:144 JLINK_IsHalted()  returns FALSE (0000ms, 1112ms total)
T794C 002:146 JLINK_IsHalted()  returns FALSE (0000ms, 1112ms total)
T794C 002:148 JLINK_IsHalted()  returns FALSE (0000ms, 1112ms total)
T794C 002:151 JLINK_IsHalted()  returns FALSE (0000ms, 1112ms total)
T794C 002:160 JLINK_IsHalted() -- CPU_ReadMem(2 bytes @ 0x20000000)  returns TRUE (0012ms, 1124ms total)
T794C 002:172 JLINK_ReadReg(R15 (PC))  returns 0x20000000 (0000ms, 1112ms total)
T794C 002:172 JLINK_ClrBPEx(BPHandle = 0x0000000E)  returns 0x00 (0000ms, 1112ms total)
T794C 002:172 JLINK_ReadReg(R0)  returns 0x00000000 (0000ms, 1112ms total)
T794C 002:172 JLINK_WriteMem(0x20000188, 0x0400 Bytes, ...) - Data: 08 E0 DF F8 C8 80 40 45 02 D1 4F F0 07 08 01 E0 ... -- CPU_WriteMem(1024 bytes @ 0x20000188)  returns 0x400 (0025ms, 1137ms total)
T794C 002:197 JLINK_WriteReg(R0, 0x08012400)  returns 0x00 (0000ms, 1137ms total)
T794C 002:197 JLINK_WriteReg(R1, 0x00000400)  returns 0x00 (0000ms, 1137ms total)
T794C 002:197 JLINK_WriteReg(R2, 0x20000188)  returns 0x00 (0000ms, 1137ms total)
T794C 002:197 JLINK_WriteReg(R3, 0x00000000)  returns 0x00 (0000ms, 1137ms total)
T794C 002:197 JLINK_WriteReg(R4, 0x00000000)  returns 0x00 (0000ms, 1137ms total)
T794C 002:197 JLINK_WriteReg(R5, 0x00000000)  returns 0x00 (0000ms, 1137ms total)
T794C 002:197 JLINK_WriteReg(R6, 0x00000000)  returns 0x00 (0000ms, 1137ms total)
T794C 002:197 JLINK_WriteReg(R7, 0x00000000)  returns 0x00 (0001ms, 1138ms total)
T794C 002:198 JLINK_WriteReg(R8, 0x00000000)  returns 0x00 (0000ms, 1138ms total)
T794C 002:198 JLINK_WriteReg(R9, 0x20000184)  returns 0x00 (0000ms, 1138ms total)
T794C 002:198 JLINK_WriteReg(R10, 0x00000000)  returns 0x00 (0000ms, 1138ms total)
T794C 002:198 JLINK_WriteReg(R11, 0x00000000)  returns 0x00 (0000ms, 1138ms total)
T794C 002:198 JLINK_WriteReg(R12, 0x00000000)  returns 0x00 (0000ms, 1138ms total)
T794C 002:198 JLINK_WriteReg(R13 (SP), 0x20001000)  returns 0x00 (0000ms, 1138ms total)
T794C 002:198 JLINK_WriteReg(R14, 0x20000001)  returns 0x00 (0000ms, 1138ms total)
T794C 002:198 JLINK_WriteReg(R15 (PC), 0x20000112)  returns 0x00 (0000ms, 1138ms total)
T794C 002:198 JLINK_WriteReg(XPSR, 0x01000000)  returns 0x00 (0000ms, 1138ms total)
T794C 002:198 JLINK_WriteReg(MSP, 0x20001000)  returns 0x00 (0000ms, 1138ms total)
T794C 002:198 JLINK_WriteReg(PSP, 0x20001000)  returns 0x00 (0000ms, 1138ms total)
T794C 002:198 JLINK_WriteReg(CFBP, 0x00000000)  returns 0x00 (0000ms, 1138ms total)
T794C 002:198 JLINK_SetBPEx(Addr = 0x20000000, Type = 0xFFFFFFF2)  returns 0x0000000F (0000ms, 1138ms total)
T794C 002:198 JLINK_Go() -- CPU_ReadMem(4 bytes @ 0xE0001000) (0006ms, 1144ms total)
T794C 002:204 JLINK_IsHalted()  returns FALSE (0001ms, 1145ms total)
T794C 002:211 JLINK_IsHalted()  returns FALSE (0001ms, 1145ms total)
T794C 002:214 JLINK_IsHalted()  returns FALSE (0000ms, 1144ms total)
T794C 002:217 JLINK_IsHalted()  returns FALSE (0000ms, 1144ms total)
T794C 002:219 JLINK_IsHalted() -- CPU_ReadMem(2 bytes @ 0x20000000)  returns TRUE (0012ms, 1156ms total)
T794C 002:231 JLINK_ReadReg(R15 (PC))  returns 0x20000000 (0000ms, 1144ms total)
T794C 002:231 JLINK_ClrBPEx(BPHandle = 0x0000000F)  returns 0x00 (0000ms, 1144ms total)
T794C 002:231 JLINK_ReadReg(R0)  returns 0x00000000 (0000ms, 1144ms total)
T794C 002:232 JLINK_WriteMem(0x20000188, 0x0400 Bytes, ...) - Data: 00 04 03 94 0C 4C 69 46 20 46 FF F7 63 FE 00 22 ... -- CPU_WriteMem(1024 bytes @ 0x20000188)  returns 0x400 (0026ms, 1170ms total)
T794C 002:258 JLINK_WriteReg(R0, 0x08012800)  returns 0x00 (0000ms, 1170ms total)
T794C 002:258 JLINK_WriteReg(R1, 0x00000400)  returns 0x00 (0000ms, 1170ms total)
T794C 002:258 JLINK_WriteReg(R2, 0x20000188)  returns 0x00 (0000ms, 1170ms total)
T794C 002:258 JLINK_WriteReg(R3, 0x00000000)  returns 0x00 (0000ms, 1170ms total)
T794C 002:258 JLINK_WriteReg(R4, 0x00000000)  returns 0x00 (0000ms, 1170ms total)
T794C 002:258 JLINK_WriteReg(R5, 0x00000000)  returns 0x00 (0000ms, 1170ms total)
T794C 002:258 JLINK_WriteReg(R6, 0x00000000)  returns 0x00 (0000ms, 1170ms total)
T794C 002:258 JLINK_WriteReg(R7, 0x00000000)  returns 0x00 (0000ms, 1170ms total)
T794C 002:258 JLINK_WriteReg(R8, 0x00000000)  returns 0x00 (0000ms, 1170ms total)
T794C 002:258 JLINK_WriteReg(R9, 0x20000184)  returns 0x00 (0000ms, 1170ms total)
T794C 002:258 JLINK_WriteReg(R10, 0x00000000)  returns 0x00 (0001ms, 1171ms total)
T794C 002:259 JLINK_WriteReg(R11, 0x00000000)  returns 0x00 (0000ms, 1171ms total)
T794C 002:259 JLINK_WriteReg(R12, 0x00000000)  returns 0x00 (0000ms, 1171ms total)
T794C 002:259 JLINK_WriteReg(R13 (SP), 0x20001000)  returns 0x00 (0000ms, 1171ms total)
T794C 002:259 JLINK_WriteReg(R14, 0x20000001)  returns 0x00 (0000ms, 1171ms total)
T794C 002:259 JLINK_WriteReg(R15 (PC), 0x20000112)  returns 0x00 (0000ms, 1171ms total)
T794C 002:259 JLINK_WriteReg(XPSR, 0x01000000)  returns 0x00 (0000ms, 1171ms total)
T794C 002:259 JLINK_WriteReg(MSP, 0x20001000)  returns 0x00 (0000ms, 1171ms total)
T794C 002:259 JLINK_WriteReg(PSP, 0x20001000)  returns 0x00 (0000ms, 1171ms total)
T794C 002:259 JLINK_WriteReg(CFBP, 0x00000000)  returns 0x00 (0000ms, 1171ms total)
T794C 002:259 JLINK_SetBPEx(Addr = 0x20000000, Type = 0xFFFFFFF2)  returns 0x00000010 (0000ms, 1171ms total)
T794C 002:259 JLINK_Go() -- CPU_ReadMem(4 bytes @ 0xE0001000) (0005ms, 1176ms total)
T794C 002:264 JLINK_IsHalted()  returns FALSE (0001ms, 1177ms total)
T794C 002:272 JLINK_IsHalted()  returns FALSE (0000ms, 1176ms total)
T794C 002:274 JLINK_IsHalted()  returns FALSE (0001ms, 1177ms total)
T794C 002:277 JLINK_IsHalted()  returns FALSE (0000ms, 1176ms total)
T794C 002:280 JLINK_IsHalted() -- CPU_ReadMem(2 bytes @ 0x20000000)  returns TRUE (0011ms, 1187ms total)
T794C 002:291 JLINK_ReadReg(R15 (PC))  returns 0x20000000 (0000ms, 1176ms total)
T794C 002:291 JLINK_ClrBPEx(BPHandle = 0x00000010)  returns 0x00 (0000ms, 1176ms total)
T794C 002:291 JLINK_ReadReg(R0)  returns 0x00000000 (0000ms, 1176ms total)
T794C 002:293 JLINK_WriteMem(0x20000188, 0x0400 Bytes, ...) - Data: 47 D8 20 68 80 07 F7 D5 20 68 40 F0 80 00 20 60 ... -- CPU_WriteMem(1024 bytes @ 0x20000188)  returns 0x400 (0026ms, 1202ms total)
T794C 002:319 JLINK_WriteReg(R0, 0x08012C00)  returns 0x00 (0000ms, 1202ms total)
T794C 002:319 JLINK_WriteReg(R1, 0x00000400)  returns 0x00 (0000ms, 1202ms total)
T794C 002:319 JLINK_WriteReg(R2, 0x20000188)  returns 0x00 (0000ms, 1202ms total)
T794C 002:319 JLINK_WriteReg(R3, 0x00000000)  returns 0x00 (0000ms, 1202ms total)
T794C 002:319 JLINK_WriteReg(R4, 0x00000000)  returns 0x00 (0000ms, 1202ms total)
T794C 002:319 JLINK_WriteReg(R5, 0x00000000)  returns 0x00 (0000ms, 1202ms total)
T794C 002:319 JLINK_WriteReg(R6, 0x00000000)  returns 0x00 (0000ms, 1202ms total)
T794C 002:319 JLINK_WriteReg(R7, 0x00000000)  returns 0x00 (0000ms, 1202ms total)
